Freq.	V(n009)
1.00000000000000e+003	(-1.15350202562270e+001dB,-1.18653008562655e+002°)
1.12201845430196e+003	(-1.08410819611306e+001dB,-1.22096640347434e+002°)
1.25892541179417e+003	(-1.01990740134957e+001dB,-1.25615539427365e+002°)
1.41253754462275e+003	(-9.61221137359254e+000dB,-1.29179013425786e+002°)
1.58489319246111e+003	(-9.08252649433433e+000dB,-1.32750844659163e+002°)
1.77827941003892e+003	(-8.61065128901725e+000dB,-1.36291677019541e+002°)
1.99526231496888e+003	(-8.19573780976238e+000dB,-1.39761809015224e+002°)
2.23872113856834e+003	(-7.83553301807321e+000dB,-1.43123977137259e+002°)
2.51188643150958e+003	(-7.52659090812149e+000dB,-1.46345715689416e+002°)
2.81838293126445e+003	(-7.26457883872202e+000dB,-1.49400992549125e+002°)
3.16227766016838e+003	(-7.04462249742746e+000dB,-1.52270998406048e+002°)
3.54813389233575e+003	(-6.86163716295694e+000dB,-1.54944143916767e+002°)
3.98107170553497e+003	(-6.71060742717799e+000dB,-1.57415442998377e+002°)
4.46683592150963e+003	(-6.58679615325961e+000dB,-1.59685511560409e+002°)
5.01187233627272e+003	(-6.48588002555722e+000dB,-1.61759399648818e+002°)
5.62341325190348e+003	(-6.40402031824439e+000dB,-1.63645426601285e+002°)
6.30957344480192e+003	(-6.33788302634291e+000dB,-1.65354128887772e+002°)
7.07945784384137e+003	(-6.28462351977849e+000dB,-1.66897376225475e+002°)
7.94328234724280e+003	(-6.24184917349678e+000dB,-1.68287671303027e+002°)
8.91250938133744e+003	(-6.20757053883840e+000dB,-1.69537623054259e+002°)
9.99999999999999e+003	(-6.18014858797190e+000dB,-1.70659570282657e+002°)
1.12201845430196e+004	(-6.15824292957181e+000dB,-1.71665327854147e+002°)
1.25892541179417e+004	(-6.14076385588813e+000dB,-1.72566028251861e+002°)
1.41253754462275e+004	(-6.12682963345888e+000dB,-1.73372034491773e+002°)
1.58489319246111e+004	(-6.11572949539039e+000dB,-1.74092904568657e+002°)
1.77827941003892e+004	(-6.10689221179837e+000dB,-1.74737391787254e+002°)
1.99526231496888e+004	(-6.09985979558168e+000dB,-1.75313469061962e+002°)
2.23872113856833e+004	(-6.09426575407381e+000dB,-1.75828368366370e+002°)
2.51188643150957e+004	(-6.08981725769193e+000dB,-1.76288628972293e+002°)
2.81838293126445e+004	(-6.08628061908617e+000dB,-1.76700150004703e+002°)
3.16227766016837e+004	(-6.08346953064499e+000dB,-1.77068244250672e+002°)
3.54813389233575e+004	(-6.08123557587802e+000dB,-1.77397691195505e+002°)
3.98107170553496e+004	(-6.07946060012261e+000dB,-1.77692788003142e+002°)
4.46683592150962e+004	(-6.07805059216302e+000dB,-1.77957397685377e+002°)
5.01187233627271e+004	(-6.07693078775979e+000dB,-1.78194994070028e+002°)
5.62341325190348e+004	(-6.07604175772814e+000dB,-1.78408703428221e+002°)
6.30957344480192e+004	(-6.07533628707848e+000dB,-1.78601342786708e+002°)
7.07945784384136e+004	(-6.07477688842422e+000dB,-1.78775455058321e+002°)
7.94328234724279e+004	(-6.07433382318866e+000dB,-1.78933341189470e+002°)
8.91250938133743e+004	(-6.07398352899878e+000dB,-1.79077089561205e+002°)
9.99999999999997e+004	(-6.07370737189964e+000dB,-1.79208602898913e+002°)
1.12201845430196e+005	(-6.07349065844516e+000dB,-1.79329622951799e+002°)
1.25892541179416e+005	(-6.07332185600585e+000dB,-1.79441753201496e+002°)
1.41253754462275e+005	(-6.07319198037249e+000dB,-1.79546479852803e+002°)
1.58489319246111e+005	(-6.07309411842223e+000dB,-1.79645191350629e+002°)
1.77827941003892e+005	(-6.07302306066597e+000dB,-1.79739196657654e+002°)
1.99526231496887e+005	(-6.07297502425925e+000dB,-1.79829742517632e+002°)
2.23872113856833e+005	(-6.07294745181956e+000dB,-1.79918029920701e+002°)
2.51188643150957e+005	(-6.07293887539420e+000dB,1.79994770020236e+002°)
2.81838293126444e+005	(-6.07294883836851e+000dB,1.79907500578614e+002°)
3.16227766016837e+005	(-6.07297787117351e+000dB,1.79819004109146e+002°)
3.54813389233574e+005	(-6.07302751950440e+000dB,1.79728106730792e+002°)
3.98107170553496e+005	(-6.07310042654654e+000dB,1.79633602799872e+002°)
4.46683592150961e+005	(-6.07320047356867e+000dB,1.79534238973233e+002°)
5.01187233627270e+005	(-6.07333298633482e+000dB,1.79428697657430e+002°)
5.62341325190347e+005	(-6.07350501826643e+000dB,1.79315579633935e+002°)
6.30957344480191e+005	(-6.07372572533655e+000dB,1.79193385642900e+002°)
7.07945784384135e+005	(-6.07400685250372e+000dB,1.79060496699254e+002°)
7.94328234724278e+005	(-6.07436335734106e+000dB,1.78915152905140e+002°)
8.91250938133742e+005	(-6.07481420367634e+000dB,1.78755430513076e+002°)
9.99999999999995e+005	(-6.07538336688140e+000dB,1.78579216985316e+002°)
1.12201845430196e+006	(-6.07610110335574e+000dB,1.78384183788731e+002°)
1.25892541179416e+006	(-6.07700555024071e+000dB,1.78167756663120e+002°)
1.41253754462275e+006	(-6.07814473807348e+000dB,1.77927083107711e+002°)
1.58489319246111e+006	(-6.07957911963818e+000dB,1.77658996850346e+002°)
1.77827941003891e+006	(-6.08138474348235e+000dB,1.77359979103475e+002°)
1.99526231496887e+006	(-6.08365723130345e+000dB,1.77026116479655e+002°)
2.23872113856833e+006	(-6.08651675555665e+000dB,1.76653055550658e+002°)
2.51188643150957e+006	(-6.09011425799094e+000dB,1.76235954206431e+002°)
2.81838293126444e+006	(-6.09463920191518e+000dB,1.75769430228316e+002°)
3.16227766016836e+006	(-6.10032921075979e+000dB,1.75247507869292e+002°)
3.54813389233573e+006	(-6.10748201173233e+000dB,1.74663563777264e+002°)
3.98107170553495e+006	(-6.11647017289241e+000dB,1.74010274364458e+002°)
4.46683592150961e+006	(-6.12775918834425e+000dB,1.73279567790164e+002°)
5.01187233627269e+006	(-6.14192951782040e+000dB,1.72462585173676e+002°)
5.62341325190346e+006	(-6.15970320416634e+000dB,1.71549657588052e+002°)
6.30957344480190e+006	(-6.18197564401181e+000dB,1.70530307897510e+002°)
7.07945784384134e+006	(-6.20985292617440e+000dB,1.69393289657606e+002°)
7.94328234724277e+006	(-6.24469481131707e+000dB,1.68126679074231e+002°)
8.91250938133740e+006	(-6.28816281381229e+000dB,1.66718040225604e+002°)
9.99999999999994e+006	(-6.34227184970387e+000dB,1.65154687879662e+002°)
1.12201845430196e+007	(-6.40944241284732e+000dB,1.63424075283303e+002°)
1.25892541179416e+007	(-6.49254814280132e+000dB,1.61514334525929e+002°)
1.41253754462275e+007	(-6.59495096000327e+000dB,1.59414991866991e+002°)
1.58489319246110e+007	(-6.72051288679587e+000dB,1.57117866316061e+002°)
1.77827941003891e+007	(-6.87357083084897e+000dB,1.54618133082646e+002°)
1.99526231496887e+007	(-7.05885906274160e+000dB,1.51915491874301e+002°)
2.23872113856833e+007	(-7.28136545400407e+000dB,1.49015324935878e+002°)
2.51188643150956e+007	(-7.54611352129811e+000dB,1.45929669940269e+002°)
2.81838293126443e+007	(-7.85787410101171e+000dB,1.42677786636490e+002°)
3.16227766016836e+007	(-8.22082739122348e+000dB,1.39286089451656e+002°)
3.54813389233573e+007	(-8.63821459140210e+000dB,1.35787275713011e+002°)
3.98107170553494e+007	(-9.11203208577230e+000dB,1.32218608918689e+002°)
4.46683592150960e+007	(-9.64282299902472e+000dB,1.28619495848673e+002°)
5.01187233627269e+007	(-1.02296070130443e+001dB,1.25028670975658e+002°)
5.62341325190345e+007	(-1.08699619083718e+001dB,1.21481405979807e+002°)
6.30957344480189e+007	(-1.15602380974891e+001dB,1.18007152813497e+002°)
7.07945784384133e+007	(-1.22958615657284e+001dB,1.14627909522355e+002°)
7.94328234724275e+007	(-1.30716690521590e+001dB,1.11357417707891e+002°)
8.91250938133739e+007	(-1.38822232636685e+001dB,1.08201124925210e+002°)
9.99999999999992e+007	(-1.47220707192418e+001dB,1.05156724767768e+002°)
1.12201845430195e+008	(-1.55859232998339e+001dB,1.02215039196113e+002°)
1.25892541179416e+008	(-1.64687607250486e+001dB,9.93610200590804e+001°)
1.41253754462274e+008	(-1.73658619196073e+001dB,9.65746936786607e+001°)
1.58489319246110e+008	(-1.82727782893522e+001dB,9.38319282861181e+001°)
1.77827941003891e+008	(-1.91852626694317e+001dB,9.11049516699832e+001°)
1.99526231496886e+008	(-2.00991660101543e+001dB,8.83625771934979e+001°)
2.23872113856832e+008	(-2.10103114318803e+001dB,8.55701084543745e+001°)
2.51188643150956e+008	(-2.19143534443969e+001dB,8.26888869306235e+001°)
2.81838293126443e+008	(-2.28066300274441e+001dB,7.96754239994019e+001°)
3.16227766016835e+008	(-2.36820182235696e+001dB,7.64800178018522e+001°)
3.54813389233572e+008	(-2.45348120212105e+001dB,7.30446941998140e+001°)
3.98107170553494e+008	(-2.53586585100502e+001dB,6.93002259274064e+001°)
4.46683592150959e+008	(-2.61466220336738e+001dB,6.51618773631652e+001°)
5.01187233627268e+008	(-2.68915104047269e+001dB,6.05234202169638e+001°)
5.62341325190344e+008	(-2.75867174625146e+001dB,5.52489733910926e+001°)
6.30957344480188e+008	(-2.82280521217424e+001dB,4.91626731106133e+001°)
7.07945784384132e+008	(-2.88173735686129e+001dB,4.20380110994012e+001°)
7.94328234724274e+008	(-2.93692598870513e+001dB,3.35941455327457e+001°)
8.91250938133737e+008	(-2.99217782540001e+001dB,2.35196131230339e+001°)
9.99999999999991e+008	(-3.05494610422710e+001dB,1.15655715329680e+001°)
1.12201845430195e+009	(-3.13668115598082e+001dB,-2.24664469801976e+000°)
1.25892541179416e+009	(-3.24981021495733e+001dB,-1.73673632623385e+001°)
1.41253754462274e+009	(-3.40073531491067e+001dB,-3.27077598421767e+001°)
1.58489319246110e+009	(-3.58481759621377e+001dB,-4.71012957274899e+001°)
1.77827941003891e+009	(-3.78965843118423e+001dB,-5.98473313448890e+001°)
1.99526231496886e+009	(-4.00252172853792e+001dB,-7.08182276400477e+001°)
2.23872113856832e+009	(-4.21460170546066e+001dB,-8.02266467250768e+001°)
2.51188643150955e+009	(-4.42131256911063e+001dB,-8.83881815094435e+001°)
2.81838293126442e+009	(-4.62104871053141e+001dB,-9.55989545945052e+001°)
3.16227766016835e+009	(-4.81395553127732e+001dB,-1.02096300724620e+002°)
3.54813389233572e+009	(-5.00108377031518e+001dB,-1.08055942224982e+002°)
3.98107170553493e+009	(-5.18386879387455e+001dB,-1.13600670168541e+002°)
4.46683592150958e+009	(-5.36381909905951e+001dB,-1.18811064661268e+002°)
5.01187233627267e+009	(-5.54233261107192e+001dB,-1.23735545020935e+002°)
5.62341325190343e+009	(-5.72059442349327e+001dB,-1.28399257905413e+002°)
6.30957344480186e+009	(-5.89953044443324e+001dB,-1.32811778466686e+002°)
7.07945784384130e+009	(-6.07980111564403e+001dB,-1.36973572476490e+002°)
7.94328234724273e+009	(-6.26182299256291e+001dB,-1.40881109047559e+002°)
8.91250938133735e+009	(-6.44580729079652e+001dB,-1.44530558922385e+002°)
1.00000000000000e+010	(-6.63180574797416e+001dB,-1.47920137853996e+002°)
