Freq.	V(out)
1.00000000000000e+003	(-6.34436719934163e+000dB,-1.67570348690843e+002°)
1.12201845430196e+003	(-6.31995928991259e+000dB,-1.68909029264767e+002°)
1.25892541179417e+003	(-6.30049838440537e+000dB,-1.70106033766442e+002°)
1.41253754462275e+003	(-6.28499362085798e+000dB,-1.71175666682611e+002°)
1.58489319246111e+003	(-6.27264828677610e+000dB,-1.72130992451924e+002°)
1.77827941003892e+003	(-6.26282336191719e+000dB,-1.72983882134920e+002°)
1.99526231496888e+003	(-6.25500731893678e+000dB,-1.73745079206073e+002°)
2.23872113856834e+003	(-6.24879133229290e+000dB,-1.74424276001743e+002°)
2.51188643150958e+003	(-6.24384906883959e+000dB,-1.75030194856737e+002°)
2.81838293126445e+003	(-6.23992030334926e+000dB,-1.75570669855310e+002°)
3.16227766016838e+003	(-6.23679769193266e+000dB,-1.76052726503547e+002°)
3.54813389233575e+003	(-6.23431613071131e+000dB,-1.76482657641991e+002°)
3.98107170553497e+003	(-6.23234421718427e+000dB,-1.76866094622296e+002°)
4.46683592150963e+003	(-6.23077741320726e+000dB,-1.77208073266221e+002°)
5.01187233627272e+003	(-6.22953257954728e+000dB,-1.77513094460403e+002°)
5.62341325190348e+003	(-6.22854361263036e+000dB,-1.77785179458398e+002°)
6.30957344480192e+003	(-6.22775796480911e+000dB,-1.78027920102816e+002°)
7.07945784384137e+003	(-6.22713387154389e+000dB,-1.78244524261076e+002°)
7.94328234724280e+003	(-6.22663814331574e+000dB,-1.78437856813600e+002°)
8.91250938133744e+003	(-6.22624440814907e+000dB,-1.78610476549974e+002°)
9.99999999999999e+003	(-6.22593171333892e+000dB,-1.78764669329433e+002°)
1.12201845430196e+004	(-6.22568341330226e+000dB,-1.78902477850637e+002°)
1.25892541179417e+004	(-6.22548628521021e+000dB,-1.79025728358914e+002°)
1.41253754462275e+004	(-6.22532982587342e+000dB,-1.79136054598117e+002°)
1.58489319246111e+004	(-6.22520569283967e+000dB,-1.79234919291162e+002°)
1.77827941003892e+004	(-6.22510726022971e+000dB,-1.79323633410744e+002°)
1.99526231496888e+004	(-6.22502926590277e+000dB,-1.79403373479052e+002°)
2.23872113856833e+004	(-6.22496753137098e+000dB,-1.79475197114012e+002°)
2.51188643150957e+004	(-6.22491873972136e+000dB,-1.79540057019295e+002°)
2.81838293126445e+004	(-6.22488025983009e+000dB,-1.79598813596808e+002°)
3.16227766016837e+004	(-6.22485000752387e+000dB,-1.79652246343629e+002°)
3.54813389233575e+004	(-6.22482633618678e+000dB,-1.79701064180399e+002°)
3.98107170553496e+004	(-6.22480795077339e+000dB,-1.79745914845300e+002°)
4.46683592150962e+004	(-6.22479384038401e+000dB,-1.79787393476725e+002°)
5.01187233627271e+004	(-6.22478322557973e+000dB,-1.79826050498226e+002°)
5.62341325190348e+004	(-6.22477551750475e+000dB,-1.79862398910876e+002°)
6.30957344480192e+004	(-6.22477028663973e+000dB,-1.79896921090538e+002°)
7.07945784384136e+004	(-6.22476723962650e+000dB,-1.79930075180907e+002°)
7.94328234724279e+004	(-6.22476620308337e+000dB,-1.79962301167268e+002°)
8.91250938133743e+004	(-6.22476711369981e+000dB,-1.79994026711324e+002°)
9.99999999999997e+004	(-6.22477001419836e+000dB,1.79974327175981e+002°)
1.12201845430196e+005	(-6.22477505501825e+000dB,1.79942340549033e+002°)
1.25892541179416e+005	(-6.22478250184040e+000dB,1.79909588955963e+002°)
1.41253754462275e+005	(-6.22479274935658e+000dB,1.79875637807588e+002°)
1.58489319246111e+005	(-6.22480634200286e+000dB,1.79840036612579e+002°)
1.77827941003892e+005	(-6.22482400274151e+000dB,1.79802313003010e+002°)
1.99526231496887e+005	(-6.22484667140307e+000dB,1.79761966471412e+002°)
2.23872113856833e+005	(-6.22487555460996e+000dB,1.79718461737140e+002°)
2.51188643150957e+005	(-6.22491218992105e+000dB,1.79671221654911e+002°)
2.81838293126444e+005	(-6.22495852759272e+000dB,1.79619619572952e+002°)
3.16227766016837e+005	(-6.22501703428729e+000dB,1.79562971041267e+002°)
3.54813389233574e+005	(-6.22509082422033e+000dB,1.79500524762919e+002°)
3.98107170553496e+005	(-6.22518382468630e+000dB,1.79431452672207e+002°)
4.46683592150961e+005	(-6.22530098470947e+000dB,1.79354839013901e+002°)
5.01187233627270e+005	(-6.22544853782649e+000dB,1.79269668286436e+002°)
5.62341325190347e+005	(-6.22563433283019e+000dB,1.79174811900645e+002°)
6.30957344480191e+005	(-6.22586824982915e+000dB,1.79069013392643e+002°)
7.07945784384135e+005	(-6.22616272337339e+000dB,1.78950872017286e+002°)
7.94328234724278e+005	(-6.22653339986469e+000dB,1.78818824535611e+002°)
8.91250938133742e+005	(-6.22699996325896e+000dB,1.78671124998906e+002°)
9.99999999999995e+005	(-6.22758717146150e+000dB,1.78505822322361e+002°)
1.12201845430196e+006	(-6.22832615615926e+000dB,1.78320735437011e+002°)
1.25892541179416e+006	(-6.22925605150222e+000dB,1.78113425809196e+002°)
1.41253754462275e+006	(-6.23042603248122e+000dB,1.77881167128855e+002°)
1.58489319246111e+006	(-6.23189786250387e+000dB,1.77620911992795e+002°)
1.77827941003891e+006	(-6.23374907203053e+000dB,1.77329255454094e+002°)
1.99526231496887e+006	(-6.23607691668611e+000dB,1.77002395382118e+002°)
2.23872113856833e+006	(-6.23900329446166e+000dB,1.76636089685615e+002°)
2.51188643150957e+006	(-6.24268083795851e+000dB,1.76225610611455e+002°)
2.81838293126444e+006	(-6.24730043955279e+000dB,1.75765696549559e+002°)
3.16227766016836e+006	(-6.25310051560586e+000dB,1.75250502081633e+002°)
3.54813389233573e+006	(-6.26037837128234e+000dB,1.74673547423939e+002°)
3.98107170553495e+006	(-6.26950409143770e+000dB,1.74027668984131e+002°)
4.46683592150961e+006	(-6.28093745613786e+000dB,1.73304973542303e+002°)
5.01187233627269e+006	(-6.29524845985237e+000dB,1.72496799698207e+002°)
5.62341325190346e+006	(-6.31314209119596e+000dB,1.71593691866879e+002°)
6.30957344480190e+006	(-6.33548807777903e+000dB,1.70585394491431e+002°)
7.07945784384134e+006	(-6.36335625996254e+000dB,1.69460877507215e+002°)
7.94328234724277e+006	(-6.39805802830495e+000dB,1.68208408561643e+002°)
8.91250938133740e+006	(-6.44119370113172e+000dB,1.66815692823043e+002°)
9.99999999999994e+006	(-6.49470467526337e+000dB,1.65270106652191e+002°)
1.12201845430196e+007	(-6.56092752922950e+000dB,1.63559055408509e+002°)
1.25892541179416e+007	(-6.64264496189952e+000dB,1.61670486124704e+002°)
1.41253754462275e+007	(-6.74312561480336e+000dB,1.59593580065674e+002°)
1.58489319246110e+007	(-6.86614174287640e+000dB,1.57319635428500e+002°)
1.77827941003891e+007	(-7.01595091855696e+000dB,1.54843123803482e+002°)
1.99526231496887e+007	(-7.19722641704264e+000dB,1.52162863514943e+002°)
2.23872113856833e+007	(-7.41492204219335e+000dB,1.49283199638998e+002°)
2.51188643150956e+007	(-7.67406258907941e+000dB,1.46215021536325e+002°)
2.81838293126443e+007	(-7.97946217410587e+000dB,1.42976400654407e+002°)
3.16227766016836e+007	(-8.33538896859500e+000dB,1.39592618786656e+002°)
3.54813389233573e+007	(-8.74521336658526e+000dB,1.36095405501209e+002°)
3.98107170553494e+007	(-9.21109128077181e+000dB,1.32521324261838e+002°)
4.46683592150960e+007	(-9.73373796218967e+000dB,1.28909421941791e+002°)
5.01187233627269e+007	(-1.03123358587906e+001dB,1.25298435280044e+002°)
5.62341325190345e+007	(-1.09445939634546e+001dB,1.21723964443456e+002°)
6.30957344480189e+007	(-1.16269438727714e+001dB,1.18216030244231e+002°)
7.07945784384133e+007	(-1.23548304898792e+001dB,1.14797324555137e+002°)
7.94328234724275e+007	(-1.31230415806142e+001dB,1.11482287212362e+002°)
8.91250938133739e+007	(-1.39260224364722e+001dB,1.08276962812535e+002°)
9.99999999999992e+007	(-1.47581356224612e+001dB,1.05179460881365e+002°)
1.12201845430195e+008	(-1.56138441244454e+001dB,1.02180784847204e+002°)
1.25892541179416e+008	(-1.64878128503817e+001dB,9.92658004557447e+001°)
1.41253754462274e+008	(-1.73749348913028e+001dB,9.64141571918795e+001°)
1.58489319246110e+008	(-1.82702946313590e+001dB,9.36010307798673e+001°)
1.77827941003891e+008	(-1.91690809488653e+001dB,9.07976021243213e+001°)
1.99526231496886e+008	(-2.00664622433005e+001dB,8.79712176134976e+001°)
2.23872113856832e+008	(-2.09574326695721e+001dB,8.50851852402108e+001°)
2.51188643150956e+008	(-2.18366372052407e+001dB,8.20981482112254e+001°)
2.81838293126443e+008	(-2.26981833842686e+001dB,7.89629429162021e+001°)
3.16227766016835e+008	(-2.35354513505237e+001dB,7.56247849409669e+001°)
3.54813389233572e+008	(-2.43409242401223e+001dB,7.20185277243778e+001°)
3.98107170553494e+008	(-2.51060835384309e+001dB,6.80645857605313e+001°)
4.46683592150959e+008	(-2.58214610693820e+001dB,6.36628942402596e+001°)
5.01187233627268e+008	(-2.64770360604793e+001dB,5.86839922366611e+001°)
5.62341325190344e+008	(-2.70633649242456e+001dB,5.29560820256889e+001°)
6.30957344480188e+008	(-2.75742338930429e+001dB,4.62472568617250e+001°)
7.07945784384132e+008	(-2.80123787541722e+001dB,3.82448342380638e+001°)
7.94328234724274e+008	(-2.84009067256265e+001dB,2.85443110835824e+001°)
8.91250938133737e+008	(-2.88031137150342e+001dB,1.66907312840824e+001°)
9.99999999999991e+008	(-2.93460324532678e+001dB,2.37054464452043e+000°)
1.12201845430195e+009	(-3.02164060433894e+001dB,-1.41594131394862e+001°)
1.25892541179416e+009	(-3.15751167057236e+001dB,-3.16813498129241e+001°)
1.41253754462274e+009	(-3.34268196223548e+001dB,-4.84083335059841e+001°)
1.58489319246110e+009	(-3.56133753959580e+001dB,-6.30493683807924e+001°)
1.77827941003891e+009	(-3.79414355864400e+001dB,-7.52786044614041e+001°)
1.99526231496886e+009	(-4.02752486095033e+001dB,-8.53787367266812e+001°)
2.23872113856832e+009	(-4.25453790521579e+001dB,-9.37993580204334e+001°)
2.51188643150955e+009	(-4.47258856699874e+001dB,-1.00949711860966e+002°)
2.81838293126442e+009	(-4.68139622334260e+001dB,-1.07149990703152e+002°)
3.16227766016835e+009	(-4.88178980272208e+001dB,-1.12639193077277e+002°)
3.54813389233572e+009	(-5.07508285938208e+001dB,-1.17593651917381e+002°)
3.98107170553493e+009	(-5.26275860224115e+001dB,-1.22142805528331e+002°)
4.46683592150958e+009	(-5.44630624446250e+001dB,-1.26380336736588e+002°)
5.01187233627267e+009	(-5.62712894768319e+001dB,-1.30371787913310e+002°)
5.62341325190343e+009	(-5.80648627757078e+001dB,-1.34160092721537e+002°)
6.30957344480186e+009	(-5.98545575894160e+001dB,-1.37770119587508e+002°)
7.07945784384130e+009	(-6.16490895493745e+001dB,-1.41212875478632e+002°)
7.94328234724273e+009	(-6.34550213731824e+001dB,-1.44489597612060e+002°)
8.91250938133735e+009	(-6.52768220420646e+001dB,-1.47595640084607e+002°)
1.00000000000000e+010	(-6.71170672447276e+001dB,-1.50523903097931e+002°)
