Freq.	V(input_impedance)
1.00000000000000e+000	(1.99649512054274e+002dB,-1.61674839567355e+001°)
1.12201845430196e+000	(1.99563190748865e+002dB,-1.80189868266263e+001°)
1.25892541179417e+000	(1.99456902843296e+002dB,-2.00509198079169e+001°)
1.41253754462275e+000	(1.99326690129636e+002dB,-2.22696365273535e+001°)
1.58489319246111e+000	(1.99168125374441e+002dB,-2.46777797321692e+001°)
1.77827941003892e+000	(1.98976399388385e+002dB,-2.72730848484198e+001°)
1.99526231496888e+000	(1.98746476047072e+002dB,-3.00472169056349e+001°)
2.23872113856834e+000	(1.98473321580107e+002dB,-3.29848248346042e+001°)
2.51188643150958e+000	(1.98152201663501e+002dB,-3.60630385311019e+001°)
2.81838293126445e+000	(1.97779022312593e+002dB,-3.92516313056021e+001°)
3.16227766016838e+000	(1.97350672363078e+002dB,-4.25140003566479e+001°)
3.54813389233575e+000	(1.96865313131196e+002dB,-4.58089770332724e+001°)
3.98107170553497e+000	(1.96322561480456e+002dB,-4.90932954381395e+001°)
4.46683592150963e+000	(1.95723529076215e+002dB,-5.23243805793111e+001°)
5.01187233627272e+000	(1.95070709542553e+002dB,-5.54630300818192e+001°)
5.62341325190348e+000	(1.94367737053353e+002dB,-5.84755929205407e+001°)
6.30957344480192e+000	(1.93619063633501e+002dB,-6.13353822036777e+001°)
7.07945784384137e+000	(1.92829611186226e+002dB,-6.40232425915891e+001°)
7.94328234724280e+000	(1.92004447891612e+002dB,-6.65273611227433e+001°)
8.91250938133744e+000	(1.91148522548551e+002dB,-6.88425176991792e+001°)
9.99999999999998e+000	(1.90266471846267e+002dB,-7.09690064335326e+001°)
1.12201845430196e+001	(1.89362500034228e+002dB,-7.29114367390364e+001°)
1.25892541179417e+001	(1.88440320568274e+002dB,-7.46775699743996e+001°)
1.41253754462275e+001	(1.87503144986847e+002dB,-7.62772877044633e+001°)
1.58489319246111e+001	(1.86553704046291e+002dB,-7.77217363559955e+001°)
1.77827941003892e+001	(1.85594288249276e+002dB,-7.90226563240792e+001°)
1.99526231496888e+001	(1.84626797898260e+002dB,-8.01918813335420e+001°)
2.23872113856833e+001	(1.83652795783512e+002dB,-8.12409830394460e+001°)
2.51188643150957e+001	(1.82673558122074e+002dB,-8.21810327417241e+001°)
2.81838293126445e+001	(1.81690121262845e+002dB,-8.30224534755085e+001°)
3.16227766016837e+001	(1.80703322998512e+002dB,-8.37749392937854e+001°)
3.54813389233575e+001	(1.79713838184046e+002dB,-8.44474228068428e+001°)
3.98107170553496e+001	(1.78722208874317e+002dB,-8.50480761597693e+001°)
4.46683592150962e+001	(1.77728869466777e+002dB,-8.55843342276062e+001°)
5.01187233627271e+001	(1.76734167452772e+002dB,-8.60629317620321e+001°)
5.62341325190347e+001	(1.75738380403333e+002dB,-8.64899485482080e+001°)
6.30957344480191e+001	(1.74741729783818e+002dB,-8.68708584039761e+001°)
7.07945784384136e+001	(1.73744392133373e+002dB,-8.72105791744696e+001°)
7.94328234724279e+001	(1.72746508076514e+002dB,-8.75135218394957e+001°)
8.91250938133743e+001	(1.71748189564877e+002dB,-8.77836375426902e+001°)
9.99999999999997e+001	(1.70749525682671e+002dB,-8.80244618391244e+001°)
1.12201845430196e+002	(1.69750587291775e+002dB,-8.82391557957893e+001°)
1.25892541179416e+002	(1.68751430742835e+002dB,-8.84305438084926e+001°)
1.41253754462275e+002	(1.67752100836582e+002dB,-8.86011481500924e+001°)
1.58489319246111e+002	(1.66752633184657e+002dB,-8.87532203614537e+001°)
1.77827941003892e+002	(1.65753056090271e+002dB,-8.88887696546442e+001°)
1.99526231496887e+002	(1.64753392045491e+002dB,-8.90095885296308e+001°)
2.23872113856833e+002	(1.63753658922729e+002dB,-8.91172758196340e+001°)
2.51188643150957e+002	(1.62753870922543e+002dB,-8.92132573823758e+001°)
2.81838293126444e+002	(1.61754039327356e+002dB,-8.92988046489470e+001°)
3.16227766016837e+002	(1.60754173100708e+002dB,-8.93750512318712e+001°)
3.54813389233574e+002	(1.59754279363595e+002dB,-8.94430077811546e+001°)
3.98107170553496e+002	(1.58754363773059e+002dB,-8.95035752630684e+001°)
4.46683592150961e+002	(1.57754430823049e+002dB,-8.95575568220022e+001°)
5.01187233627270e+002	(1.56754484083487e+002dB,-8.96056683715529e+001°)
5.62341325190347e+002	(1.55754526390222e+002dB,-8.96485480474255e+001°)
6.30957344480191e+002	(1.54754559995950e+002dB,-8.96867646419435e+001°)
7.07945784384135e+002	(1.53754586690114e+002dB,-8.97208251280987e+001°)
7.94328234724278e+002	(1.52754607894159e+002dB,-8.97511813701506e+001°)
8.91250938133742e+002	(1.51754624737204e+002dB,-8.97782361078222e+001°)
9.99999999999995e+002	(1.50754638116157e+002dB,-8.98023482920787e+001°)
1.12201845430196e+003	(1.49754648743467e+002dB,-8.98238378422896e+001°)
1.25892541179416e+003	(1.48754657185058e+002dB,-8.98429898871881e+001°)
1.41253754462275e+003	(1.47754663890464e+002dB,-8.98600585453996e+001°)
1.58489319246111e+003	(1.46754669216765e+002dB,-8.98752702953481e+001°)
1.77827941003891e+003	(1.45754673447601e+002dB,-8.98888269790055e+001°)
1.99526231496887e+003	(1.44754676808276e+002dB,-8.99009084791625e+001°)
2.23872113856833e+003	(1.43754679477758e+002dB,-8.99116751056218e+001°)
2.51188643150957e+003	(1.42754681598204e+002dB,-8.99212697218852e+001°)
2.81838293126444e+003	(1.41754683282536e+002dB,-8.99298196404939e+001°)
3.16227766016836e+003	(1.40754684620450e+002dB,-8.99374383121247e+001°)
3.54813389233573e+003	(1.39754685683193e+002dB,-8.99442268308250e+001°)
3.98107170553495e+003	(1.38754686527362e+002dB,-8.99502752753375e+001°)
4.46683592150961e+003	(1.37754687197910e+002dB,-8.99556639042965e+001°)
5.01187233627269e+003	(1.36754687730548e+002dB,-8.99604642211454e+001°)
5.62341325190346e+003	(1.35754688153639e+002dB,-8.99647399228970e+001°)
6.30957344480189e+003	(1.34754688489716e+002dB,-8.99685477453207e+001°)
7.07945784384134e+003	(1.33754688756674e+002dB,-8.99719382157687e+001°)
7.94328234724277e+003	(1.32754688968732e+002dB,-8.99749563236261e+001°)
8.91250938133740e+003	(1.31754689137181e+002dB,-8.99776421172813e+001°)
9.99999999999994e+003	(1.30754689270992e+002dB,-8.99800312355354e+001°)
1.12201845430196e+004	(1.29754689377291e+002dB,-8.99821553805014e+001°)
1.25892541179416e+004	(1.28754689461738e+002dB,-8.99840427382678e+001°)
1.41253754462275e+004	(1.27754689528832e+002dB,-8.99857183529083e+001°)
1.58489319246110e+004	(1.26754689582145e+002dB,-8.99872044587987e+001°)
1.77827941003891e+004	(1.25754689624516e+002dB,-8.99885207756526e+001°)
1.99526231496887e+004	(1.24754689658201e+002dB,-8.99896847701887e+001°)
2.23872113856832e+004	(1.23754689684995e+002dB,-8.99907118879030e+001°)
2.51188643150956e+004	(1.22754689706324e+002dB,-8.99916157580203e+001°)
2.81838293126443e+004	(1.21754689723323e+002dB,-8.99924083743459e+001°)
3.16227766016836e+004	(1.20754689736900e+002dB,-8.99931002544152e+001°)
3.54813389233573e+004	(1.19754689747775e+002dB,-8.99937005790552e+001°)
3.98107170553494e+004	(1.18754689756529e+002dB,-8.99942173142086e+001°)
4.46683592150960e+004	(1.17754689763628e+002dB,-8.99946573166362e+001°)
5.01187233627269e+004	(1.16754689769449e+002dB,-8.99950264249025e+001°)
5.62341325190345e+004	(1.15754689774303e+002dB,-8.99953295368497e+001°)
6.30957344480188e+004	(1.14754689778448e+002dB,-8.99955706745891e+001°)
7.07945784384133e+004	(1.13754689782105e+002dB,-8.99957530378717e+001°)
7.94328234724275e+004	(1.12754689785468e+002dB,-8.99958790465476e+001°)
8.91250938133739e+004	(1.11754689788718e+002dB,-8.99959503726751e+001°)
9.99999999999992e+004	(1.10754689792026e+002dB,-8.99959679627088e+001°)
1.12201845430195e+005	(1.09754689795569e+002dB,-8.99959320500576e+001°)
1.25892541179416e+005	(1.08754689799536e+002dB,-8.99958421581826e+001°)
1.41253754462274e+005	(1.07754689804138e+002dB,-8.99956970942734e+001°)
1.58489319246110e+005	(1.06754689809619e+002dB,-8.99954949334201e+001°)
1.77827941003891e+005	(1.05754689816273e+002dB,-8.99952329930714e+001°)
1.99526231496886e+005	(1.04754689824453e+002dB,-8.99949077974383e+001°)
2.23872113856832e+005	(1.03754689834594e+002dB,-8.99945150313729e+001°)
2.51188643150956e+005	(1.02754689847238e+002dB,-8.99940494831090e+001°)
2.81838293126443e+005	(1.01754689863057e+002dB,-8.99935049751049e+001°)
3.16227766016835e+005	(1.00754689882893e+002dB,-8.99928742820717e+001°)
3.54813389233572e+005	(9.97546899078039e+001dB,-8.99921490350984e+001°)
3.98107170553494e+005	(9.87546899391150e+001dB,-8.99913196106011e+001°)
4.46683592150959e+005	(9.77546899784940e+001dB,-8.99903750026250e+001°)
5.01187233627268e+005	(9.67546900280382e+001dB,-8.99893026768022e+001°)
5.62341325190344e+005	(9.57546900903859e+001dB,-8.99880884040291e+001°)
6.30957344480187e+005	(9.47546901688573e+001dB,-8.99867160716557e+001°)
7.07945784384131e+005	(9.37546902676313e+001dB,-8.99851674696824e+001°)
7.94328234724274e+005	(9.27546903919680e+001dB,-8.99834220491257e+001°)
8.91250938133737e+005	(9.17546905484888e+001dB,-8.99814566493493e+001°)
9.99999999999990e+005	(9.07546907455290e+001dB,-8.99792451907402e+001°)
1.12201845430195e+006	(8.97546909935817e+001dB,-8.99767583286540e+001°)
1.25892541179415e+006	(8.87546913058565e+001dB,-8.99739630640375e+001°)
1.41253754462274e+006	(8.77546916989833e+001dB,-8.99708223055625e+001°)
1.58489319246110e+006	(8.67546921938974e+001dB,-8.99672943774633e+001°)
1.77827941003891e+006	(8.57546928169548e+001dB,-8.99633324665470e+001°)
1.99526231496886e+006	(8.47546936013355e+001dB,-8.99588840010438e+001°)
2.23872113856832e+006	(8.37546945888104e+001dB,-8.99538899530571e+001°)
2.51188643150955e+006	(8.27546958319662e+001dB,-8.99482840553642e+001°)
2.81838293126442e+006	(8.17546973970049e+001dB,-8.99419919221823e+001°)
3.16227766016835e+006	(8.07546993672703e+001dB,-8.99349300622430e+001°)
3.54813389233572e+006	(7.97547018476854e+001dB,-8.99270047710972e+001°)
3.98107170553493e+006	(7.87547049703401e+001dB,-8.99181108879719e+001°)
4.46683592150958e+006	(7.77547089015254e+001dB,-8.99081304007149e+001°)
5.01187233627267e+006	(7.67547138505884e+001dB,-8.98969308803603e+001°)
5.62341325190343e+006	(7.57547200810802e+001dB,-8.98843637246039e+001°)
6.30957344480186e+006	(7.47547279247897e+001dB,-8.98702621869678e+001°)
7.07945784384130e+006	(7.37547377994117e+001dB,-8.98544391656273e+001°)
7.94328234724273e+006	(7.27547502307875e+001dB,-8.98366847227331e+001°)
8.91250938133736e+006	(7.17547658809042e+001dB,-8.98167633015579e+001°)
9.99999999999989e+006	(7.07547855831415e+001dB,-8.97944106048920e+001°)
1.12201845430195e+007	(6.97548103866428e+001dB,-8.97693300937552e+001°)
1.25892541179415e+007	(6.87548416121695e+001dB,-8.97411890606638e+001°)
1.41253754462274e+007	(6.77548809224118e+001dB,-8.97096142263279e+001°)
1.58489319246110e+007	(6.67549304104937e+001dB,-8.96741868027393e+001°)
1.77827941003890e+007	(6.57549927113765e+001dB,-8.96344369590983e+001°)
1.99526231496886e+007	(6.47550711420815e+001dB,-8.95898376199158e+001°)
2.23872113856831e+007	(6.37551698781760e+001dB,-8.95397975169021e+001°)
2.51188643150955e+007	(6.27552941758885e+001dB,-8.94836534079668e+001°)
2.81838293126442e+007	(6.17554506516275e+001dB,-8.94206613678708e+001°)
3.16227766016834e+007	(6.07556476337047e+001dB,-8.93499870459681e+001°)
3.54813389233571e+007	(5.97558956048566e+001dB,-8.92706947772912e+001°)
3.98107170553493e+007	(5.87562077589191e+001dB,-8.91817354244096e+001°)
4.46683592150958e+007	(5.77566007009608e+001dB,-8.90819328196567e+001°)
5.01187233627266e+007	(5.67570953276236e+001dB,-8.89699686714449e+001°)
5.62341325190342e+007	(5.57577179337045e+001dB,-8.88443657959022e+001°)
6.30957344480186e+007	(5.47585016025663e+001dB,-8.87034695380240e+001°)
7.07945784384129e+007	(5.37594879522961e+001dB,-8.85454272579483e+001°)
7.94328234724272e+007	(5.27607293272435e+001dB,-8.83681657820746e+001°)
8.91250938133734e+007	(5.17622915463320e+001dB,-8.81693667616121e+001°)
9.99999999999987e+007	(5.07642573461141e+001dB,-8.79464399512548e+001°)
1.12201845430195e+008	(4.97667306886767e+001dB,-8.76964945298955e+001°)
1.25892541179415e+008	(4.87698421429256e+001dB,-8.74163087500145e+001°)
1.41253754462274e+008	(4.77737555929288e+001dB,-8.71022984450895e+001°)
1.58489319246109e+008	(4.67786765788523e+001dB,-8.67504852754644e+001°)
1.77827941003890e+008	(4.57848626335392e+001dB,-8.63564660931113e+001°)
1.99526231496885e+008	(4.47926360382393e+001dB,-8.59153855074526e+001°)
2.23872113856831e+008	(4.38023994787781e+001dB,-8.54219147048908e+001°)
2.51188643150955e+008	(4.28146551284145e+001dB,-8.48702408953510e+001°)
2.81838293126442e+008	(4.18300276985859e+001dB,-8.42540735226634e+001°)
3.16227766016834e+008	(4.08492919561796e+001dB,-8.35666756756606e+001°)
3.54813389233571e+008	(3.98734050637983e+001dB,-8.28009320451660e+001°)
3.98107170553492e+008	(3.89035437964345e+001dB,-8.19494682941573e+001°)
4.46683592150957e+008	(3.79411461397256e+001dB,-8.10048407065876e+001°)
5.01187233627265e+008	(3.69879558742254e+001dB,-7.99598190511188e+001°)
5.62341325190341e+008	(3.60460673759633e+001dB,-7.88077888940915e+001°)
6.30957344480185e+008	(3.51179659091166e+001dB,-7.75433006168818e+001°)
7.07945784384128e+008	(3.42065561175535e+001dB,-7.61627887708018e+001°)
7.94328234724270e+008	(3.33151683769978e+001dB,-7.46654738685175e+001°)
8.91250938133733e+008	(3.24475296028633e+001dB,-7.30544354714405e+001°)
9.99999999999986e+008	(3.16076829413489e+001dB,-7.13378073433929e+001°)
1.12201845430195e+009	(3.07998409567874e+001dB,-6.95299922834939e+001°)
1.25892541179415e+009	(3.00281612667291e+001dB,-6.76527319579047e+001°)
1.41253754462273e+009	(2.92964435903487e+001dB,-6.57358106345653e+001°)
1.58489319246109e+009	(2.86077630101166e+001dB,-6.38171452285114e+001°)
1.77827941003890e+009	(2.79640734606783e+001dB,-6.19420442455517e+001°)
1.99526231496885e+009	(2.73658326054085e+001dB,-6.01615210173115e+001°)
2.23872113856831e+009	(2.68117072729734e+001dB,-5.85297115366301e+001°)
2.51188643150954e+009	(2.62984121519179e+001dB,-5.71006309195540e+001°)
2.81838293126441e+009	(2.58207135167751e+001dB,-5.59246424175341e+001°)
3.16227766016833e+009	(2.53716010260036e+001dB,-5.50450581195467e+001°)
3.54813389233570e+009	(2.49426044215339e+001dB,-5.44952317447165e+001°)
3.98107170553491e+009	(2.45242166801669e+001dB,-5.42963796224871e+001°)
4.46683592150956e+009	(2.41063828021546e+001dB,-5.44562383679684e+001°)
5.01187233627265e+009	(2.36790191758277e+001dB,-5.49685858946589e+001°)
5.62341325190341e+009	(2.32325344522409e+001dB,-5.58136261619382e+001°)
6.30957344480184e+009	(2.27583232377666e+001dB,-5.69592377467825e+001°)
7.07945784384127e+009	(2.22491983251901e+001dB,-5.83630649164461e+001°)
7.94328234724269e+009	(2.16997210153969e+001dB,-5.99753544027754e+001°)
8.91250938133732e+009	(2.11063902308319e+001dB,-6.17423166579918e+001°)
9.99999999999985e+009	(2.04676649532933e+001dB,-6.36096626074786e+001°)
1.12201845430195e+010	(1.97838198567962e+001dB,-6.55258984390908e+001°)
1.25892541179415e+010	(1.90566629827047e+001dB,-6.74449943783962e+001°)
1.41253754462273e+010	(1.82891665089367e+001dB,-6.93281748963713e+001°)
1.58489319246109e+010	(1.74850698391489e+001dB,-7.11447598678964e+001°)
1.77827941003890e+010	(1.66485076151100e+001dB,-7.28721558118703e+001°)
1.99526231496885e+010	(1.57836987588413e+001dB,-7.44952070268530e+001°)
2.23872113856830e+010	(1.48947133491784e+001dB,-7.60051541142713e+001°)
2.51188643150954e+010	(1.39853177605706e+001dB,-7.73984258227359e+001°)
2.81838293126441e+010	(1.30588878130337e+001dB,-7.86754356964910e+001°)
3.16227766016833e+010	(1.21183747847151e+001dB,-7.98394924496405e+001°)
3.54813389233570e+010	(1.11663085898359e+001dB,-8.08958784027347e+001°)
3.98107170553491e+010	(1.02048244153315e+001dB,-8.18511105155743e+001°)
4.46683592150956e+010	(9.23570213246400e+000dB,-8.27123738149281e+001°)
5.01187233627264e+010	(8.26041087630087e+000dB,-8.34871043912847e+001°)
5.62341325190340e+010	(7.28015381799839e+000dB,-8.41826948275199e+001°)
6.30957344480183e+010	(6.29591017671913e+000dB,-8.48062955685966e+001°)
7.07945784384126e+010	(5.30847295094533e+000dB,-8.53646888782292e+001°)
7.94328234724268e+010	(4.31848179536813e+000dB,-8.58642160659118e+001°)
8.91250938133730e+010	(3.32645105063308e+000dB,-8.63107426996743e+001°)
1.00000000000000e+011	(2.33279325848725e+000dB,-8.67096501041973e+001°)
