Circuit: * E:\Universiteit\Master\7 Q2 - 2021\EE4109-Structured-Electronic-Design\cir\Biasing\BiasingStep1.asc

Ignoring BSIM parameter XL
Ignoring BSIM parameter XW
Ignoring BSIM parameter XL
Ignoring BSIM parameter XW
Warning: Pd = 0 is less than W.
Warning: Ps = 0 is less than W.
Warning: Pd = 0 is less than W.
Warning: Ps = 0 is less than W.
Warning: Pd = 0 is less than W.
Warning: Ps = 0 is less than W.
Direct Newton iteration failed to find .op point.  (Use ".option noopiter" to skip.)
Starting Gmin stepping
Gmin = 10
Gmin = 1.07374
Gmin = 0.115292
Gmin = 0.0123794
Gmin = 0.00132923
Gmin = 0.000142725
Gmin = 1.5325e-005
Gmin = 1.6455e-006
Gmin = 1.76685e-007
Gmin = 1.89714e-008
Gmin = 2.03704e-009
Gmin = 2.18725e-010
Gmin = 2.34854e-011
Gmin = 2.52173e-012
Gmin = 2.70769e-013
Gmin = 0
Gmin stepping succeeded in finding the operating point.

Semiconductor Device Operating Points:
                        --- BSIM3 MOSFETS ---
Name:        m4          m3          m2          m1
Model:     c18pmos     c18nmos     c18nmos     c18nmos
Id:        1.15e-03    1.15e-03    3.60e-03    3.60e-03
Vgs:       2.99e-01    5.99e-01    6.44e-01    6.44e-01
Vds:       9.00e-01    9.00e-01    6.42e-01    6.44e-01
Vbs:       9.00e-01   -2.00e-02   -2.76e-01   -2.76e-01
Vth:      -4.98e-01    4.86e-01    5.50e-01    5.50e-01
Vdsat:    -1.12e-01    1.02e-01    9.71e-02    9.71e-02
Gm:        1.68e-02    1.65e-02    5.99e-02    5.99e-02
Gds:       1.75e-04    2.80e-04    3.59e-04    3.58e-04
Gmb        5.08e-03    3.66e-03    1.39e-02    1.39e-02
Cbd:       0.00e+00    0.00e+00    0.00e+00    0.00e+00
Cbs:       0.00e+00    0.00e+00    0.00e+00    0.00e+00
Cgsov:     2.38e-13    6.99e-14    5.59e-13    5.59e-13
Cgdov:     2.38e-13    6.99e-14    5.59e-13    5.59e-13
Cgbov:     1.40e-19    1.58e-19    2.78e-19    2.78e-19
dQgdVgb:   8.15e-13    2.50e-13    2.61e-12    2.61e-12
dQgdVdb:  -2.38e-13   -6.99e-14   -5.59e-13   -5.59e-13
dQgdVsb:  -5.59e-13   -1.68e-13   -1.92e-12   -1.92e-12
dQddVgb:  -3.67e-13   -1.12e-13   -1.14e-12   -1.14e-12
dQddVdb:   2.38e-13    6.99e-14    5.59e-13    5.59e-13
dQddVsb:   1.70e-13    5.31e-14    7.32e-13    7.32e-13
dQbdVgb:  -8.06e-14   -2.58e-14   -3.26e-13   -3.26e-13
dQbdVdb:   3.34e-17   -5.72e-18   -1.85e-16   -1.84e-16
dQbdVsb:  -1.95e-14   -7.55e-15   -1.02e-13   -1.02e-13



Date: Sun Jan 09 18:19:46 2022
Total elapsed time: 0.156 seconds.

tnom = 27
temp = 27
method = trap
totiter = 429
traniter = 0
tranpoints = 0
accept = 0
rejected = 0
matrix size = 23
fillins = 6
solver = Normal
Matrix Compiler1:      71 opcodes
Matrix Compiler2: off  [0.2]/0.3/0.5

