Circuit: * E:\Universiteit\Master\7 Q2 - 2021\EE4109-Structured-Electronic-Design\cir\Biasing\Draft3.asc

Ignoring BSIM parameter XL
Ignoring BSIM parameter XW
Warning: Pd = 0 is less than W.
Warning: Ps = 0 is less than W.
Direct Newton iteration for .op point succeeded.
Semiconductor Device Operating Points:
                        --- BSIM3 MOSFETS ---
Name:        m2          m1
Model:     c18nmos     c18nmos
Id:        3.60e-03    3.34e-04
Vgs:       5.57e-01    5.59e-01
Vds:       1.76e+00    5.59e-01
Vbs:      -5.60e-02   -5.34e-02
Vth:       4.84e-01    4.83e-01
Vdsat:     7.96e-02    8.12e-02
Gm:        6.52e-02    6.15e-03
Gds:       1.73e-03    2.72e-05
Gmb        1.71e-02    1.62e-03
Cbd:       0.00e+00    0.00e+00
Cbs:       0.00e+00    0.00e+00
Cgsov:     9.78e-13    9.78e-14
Cgdov:     9.78e-13    9.78e-14
Cgbov:     1.35e-17    1.35e-18
dQgdVgb:   5.03e-12    5.06e-13
dQgdVdb:  -9.78e-13   -9.78e-14
dQgdVsb:  -3.73e-12   -3.76e-13
dQddVgb:  -2.15e-12   -2.16e-13
dQddVdb:   9.78e-13    9.79e-14
dQddVsb:   1.51e-12    1.53e-13
dQbdVgb:  -7.35e-13   -7.31e-14
dQbdVdb:   1.10e-17   -4.95e-17
dQbdVsb:  -2.73e-13   -2.78e-14



Date: Tue Jan 11 17:23:35 2022
Total elapsed time: 0.182 seconds.

tnom = 27
temp = 27
method = trap
totiter = 6
traniter = 0
tranpoints = 0
accept = 0
rejected = 0
matrix size = 7
fillins = 0
solver = Normal
Matrix Compiler1: 286 bytes object code size
Matrix Compiler2: 583 bytes object code size
