Circuit: * E:\Universiteit\Master\7 Q2 - 2021\EE4109-Structured-Electronic-Design\cir\Biasing\Draft2.asc

Ignoring BSIM parameter XL
Ignoring BSIM parameter XW
Ignoring BSIM parameter XL
Ignoring BSIM parameter XW
Warning: Pd = 0 is less than W.
Warning: Ps = 0 is less than W.
Warning: Pd = 0 is less than W.
Warning: Ps = 0 is less than W.
Direct Newton iteration for .op point succeeded.
Semiconductor Device Operating Points:
                        --- BSIM3 MOSFETS ---
Name:        m4          m3          m2          m1
Model:     c18pmos     c18pmos     c18nmos     c18nmos
Id:        2.02e-04    2.39e-04    2.02e-04    2.39e-04
Vgs:       6.53e-02    0.00e+00    5.41e-01    5.41e-01
Vds:       6.07e-01    5.42e-01    5.86e-01    5.41e-01
Vbs:       6.07e-01    5.42e-01   -2.00e-02   -2.00e-02
Vth:      -4.99e-01   -4.99e-01    4.86e-01    4.86e-01
Vdsat:    -7.75e-02   -7.74e-02    7.20e-02    7.20e-02
Gm:        3.78e-03    4.47e-03    3.85e-03    4.57e-03
Gds:       4.63e-05    6.00e-05    6.97e-05    8.43e-05
Gmb        1.15e-03    1.36e-03    8.72e-04    1.03e-03
Cbd:       0.00e+00    0.00e+00    0.00e+00    0.00e+00
Cbs:       0.00e+00    0.00e+00    0.00e+00    0.00e+00
Cgsov:     1.19e-13    1.43e-13    3.49e-14    4.19e-14
Cgdov:     1.19e-13    1.43e-13    3.49e-14    4.19e-14
Cgbov:     7.02e-19    8.42e-19    7.88e-19    9.46e-19
dQgdVgb:   3.84e-13    4.61e-13    1.19e-13    1.43e-13
dQgdVdb:  -1.19e-13   -1.43e-13   -3.49e-14   -4.19e-14
dQgdVsb:  -2.48e-13   -2.98e-13   -7.70e-14   -9.24e-14
dQddVgb:  -1.71e-13   -2.05e-13   -5.30e-14   -6.36e-14
dQddVdb:   1.19e-13    1.43e-13    3.49e-14    4.19e-14
dQddVsb:   6.87e-14    8.23e-14    2.27e-14    2.73e-14
dQbdVgb:  -4.20e-14   -5.03e-14   -1.34e-14   -1.60e-14
dQbdVdb:   6.94e-18    1.48e-18   -5.65e-18   -8.71e-18
dQbdVsb:  -8.05e-15   -9.66e-15   -3.36e-15   -4.04e-15



Date: Tue Jan 11 16:49:36 2022
Total elapsed time: 0.225 seconds.

tnom = 27
temp = 27
method = trap
totiter = 8
traniter = 0
tranpoints = 0
accept = 0
rejected = 0
matrix size = 8
fillins = 2
solver = Normal
Matrix Compiler1: 460 bytes object code size
Matrix Compiler2: 656 bytes object code size
